JMJG,917,1999
49,7A,42D
1,BTRK VR,A,,kV,0.0274660960,0.0000000000,0,-32767,+32767,500.000000,0.110000,P
2,BTRK VY,B,,kV,0.0274660960,0.0000000000,0,-32767,+32767,500.000000,0.110000,P
3,BTRK VB,C,,kV,0.0274660960,0.0000000000,0,-32767,+32767,500.000000,0.110000,P
4,BTRK IR,A,,kA,0.0075531760,0.0000000000,0,-32767,+32767,3.500000,0.001000,P
5,BTRK IY,B,,kA,0.0075531760,0.0000000000,0,-32767,+32767,3.500000,0.001000,P
6,BTRK IB,C,,kA,0.0075531760,0.0000000000,0,-32767,+32767,3.500000,0.001000,P
7,BTRK IN,N,,kA,0.0075531760,0.0000000000,0,-32767,+32767,3.500000,0.001000,P
1,OVER BTRK VR,,,0
2,UNDER BTRK VR,,,0
3,OVER BTRK VY,,,0
4,UNDER BTRK VY,,,0
5,OVER BTRK VB,,,0
6,UNDER BTRK VB,,,0
7,OVER BTRK IR,,,0
8,OVER BTRK IY,,,0
9,OVER BTRK IB,,,0
10,OVER BTRK IN,,,0
11,BTRK 87L/1 ,,,0
12,BTRK 87L/2 ,,,0
13,BTRK 87L/1_COMM FAIL,,,0
14,BTRK 87L/2_COMM FAIL,,,0
15,BTRK 21ZBU/1,,,0
16,BTRK 21ZBU/2 ,,,0
17,BTRK-INTERTRIP SEND 1/2,,,0
18,BTRK-INTERTRIP RECEIVED 1/2,,,0
19,BTRK SOUTH CB 79AR_ATMPT,,,0
20,BTRK SOUTH CB_R OPEN,,,0
21,BTRK_SOUTH CB_Y OPEN,,,0
22,BTRK SOUTH CB_B OPEN,,,0
23,BTRK CENTER CB 79AR_ATMPT,,,0
24,BTRK CENTER CB_R OPEN,,,0
25,BTRK CENTER CB_Y OPEN,,,0
26,BTRK CENTER CB_B OPEN,,,0
27,BTRK SOUTH CB 79AR_UNSUCCESSFUL,,,0
28,BTRK CENTER CB79 AR_UNSUCCESSFUL,,,0
29,BTRK NORTH 50BF_STG2,,,0
30,BTRK CENTER 50BF_STG2,,,0
31,BTRK SOUTH 50BF_STG2,,,0
32,BTRK NORTH 86E_1/2 ,,,0
33,BTRK CENTER 86E 1/2 ,,,0
34,BTRK SOUTH 86E_1/2 ,,,0
35,BTRK NORTH 87STUB ,,,0
36,BTRK SOUTH 87STUB ,,,0
37,BTRK GT-4 21ZBU,,,0
38,BTRK GT-4 INTERTRIP SEND 1/2,,,0
39,BTRK GT-4 INTERTRIP REC 1/2,,,0
40,BTRK NORTH CB_R OPEN,,,0
41,BTRK NORTH CB_Y OPEN,,,0
42,BTRK NORTH CB_B OPEN,,,0
50
1
5000.000,11972
08/04/2024,16:42:44.668300
08/04/2024,16:42:45.168300
ASCII
1
         1,         0, -8255, 15209, -6868,    35,   -11,   -10,    21,0,0,0,0,0,0,0,0,0,0,0,0,0,0,0,0,0,0,0,0,0,0,0,0,0,0,0,0,0,0,0,0,0,0,0,0,0,0,0,0,0,0
         2,       200, -9031, 15158, -6046,    35,   -11,    -9,    22,0,0,0,0,0,0,0,0,0,0,0,0,0,0,0,0,0,0,0,0,0,0,0,0,0,0,0,0,0,0,0,0,0,0,0,0,0,0,0,0,0,0
         3,       400, -9759, 15034, -5200,    35,   -12,    -9,    22,0,0,0,0,0,0,0,0,0,0,0,0,0,0,0,0,0,0,0,0,0,0,0,0,0,0,0,0,0,0,0,0,0,0,0,0,0,0,0,0,0,0
         4,       600,-10446, 14847, -4335,    34,   -13,    -8,    22,0,0,0,0,0,0,0,0,0,0,0,0,0,0,0,0,0,0,0,0,0,0,0,0,0,0,0,0,0,0,0,0,0,0,0,0,0,0,0,0,0,0
         5,       800,-11089, 14607, -3455,    32,   -13,    -6,    23,0,0,0,0,0,0,0,0,0,0,0,0,0,0,0,0,0,0,0,0,0,0,0,0,0,0,0,0,0,0,0,0,0,0,0,0,0,0,0,0,0,0
         6,      1000,-11689, 14313, -2565,    32,   -12,    -6,    21,0,0,0,0,0,0,0,0,0,0,0,0,0,0,0,0,0,0,0,0,0,0,0,0,0,0,0,0,0,0,0,0,0,0,0,0,0,0,0,0,0,0
         7,      1200,-12245, 13954, -1663,    32,   -12,    -4,    21,0,0,0,0,0,0,0,0,0,0,0,0,0,0,0,0,0,0,0,0,0,0,0,0,0,0,0,0,0,0,0,0,0,0,0,0,0,0,0,0,0,0
         8,      1400,-12754, 13530,  -745,    31,   -12,    -4,    22,0,0,0,0,0,0,0,0,0,0,0,0,0,0,0,0,0,0,0,0,0,0,0,0,0,0,0,0,0,0,0,0,0,0,0,0,0,0,0,0,0,0
         9,      1600,-13212, 13043,   184,    29,   -11,    -6,    22,0,0,0,0,0,0,0,0,0,0,0,0,0,0,0,0,0,0,0,0,0,0,0,0,0,0,0,0,0,0,0,0,0,0,0,0,0,0,0,0,0,0
        10,      1800,-13617, 12501,  1120,    27,   -11,    -5,    22,0,0,0,0,0,0,0,0,0,0,0,0,0,0,0,0,0,0,0,0,0,0,0,0,0,0,0,0,0,0,0,0,0,0,0,0,0,0,0,0,0,0
        11,      2000,-13979, 11906,  2066,    27,   -11,    -3,    23,0,0,0,0,0,0,0,0,0,0,0,0,0,0,0,0,0,0,0,0,0,0,0,0,0,0,0,0,0,0,0,0,0,0,0,0,0,0,0,0,0,0
        12,      2200,-14299, 11259,  3028,    26,   -11,    -1,    23,0,0,0,0,0,0,0,0,0,0,0,0,0,0,0,0,0,0,0,0,0,0,0,0,0,0,0,0,0,0,0,0,0,0,0,0,0,0,0,0,0,0
        13,      2400,-14575, 10560,  4004,    25,   -11,    -1,    22,0,0,0,0,0,0,0,0,0,0,0,0,0,0,0,0,0,0,0,0,0,0,0,0,0,0,0,0,0,0,0,0,0,0,0,0,0,0,0,0,0,0
        14,      2600,-14807,  9817,  4982,    25,   -12,     0,    23,0,0,0,0,0,0,0,0,0,0,0,0,0,0,0,0,0,0,0,0,0,0,0,0,0,0,0,0,0,0,0,0,0,0,0,0,0,0,0,0,0,0
        15,      2800,-14995,  9049,  5942,    25,   -14,     0,    24,0,0,0,0,0,0,0,0,0,0,0,0,0,0,0,0,0,0,0,0,0,0,0,0,0,0,0,0,0,0,0,0,0,0,0,0,0,0,0,0,0,0
        16,      3000,-15131,  8271,  6861,    24,   -14,     2,    24,0,0,0,0,0,0,0,0,0,0,0,0,0,0,0,0,0,0,0,0,0,0,0,0,0,0,0,0,0,0,0,0,0,0,0,0,0,0,0,0,0,0
        17,      3200,-15203,  7483,  7730,    26,   -16,     4,    24,0,0,0,0,0,0,0,0,0,0,0,0,0,0,0,0,0,0,0,0,0,0,0,0,0,0,0,0,0,0,0,0,0,0,0,0,0,0,0,0,0,0
        18,      3400,-15201,  6675,  8544,    28,   -18,     5,    24,0,0,0,0,0,0,0,0,0,0,0,0,0,0,0,0,0,0,0,0,0,0,0,0,0,0,0,0,0,0,0,0,0,0,0,0,0,0,0,0,0,0
        19,      3600,-15125,  5845,  9305,    29,   -20,     3,    24,0,0,0,0,0,0,0,0,0,0,0,0,0,0,0,0,0,0,0,0,0,0,0,0,0,0,0,0,0,0,0,0,0,0,0,0,0,0,0,0,0,0
        20,      3800,-14979,  4994, 10019,    29,   -21,     4,    24,0,0,0,0,0,0,0,0,0,0,0,0,0,0,0,0,0,0,0,0,0,0,0,0,0,0,0,0,0,0,0,0,0,0,0,0,0,0,0,0,0,0
        21,      4000,-14769,  4124, 10689,    27,   -23,     6,    24,0,0,0,0,0,0,0,0,0,0,0,0,0,0,0,0,0,0,0,0,0,0,0,0,0,0,0,0,0,0,0,0,0,0,0,0,0,0,0,0,0,0
        22,      4200,-14503,  3237, 11314,    27,   -24,     8,    26,0,0,0,0,0,0,0,0,0,0,0,0,0,0,0,0,0,0,0,0,0,0,0,0,0,0,0,0,0,0,0,0,0,0,0,0,0,0,0,0,0,0
        23,      4400,-14184,  2339, 11898,    28,   -23,     8,    26,0,0,0,0,0,0,0,0,0,0,0,0,0,0,0,0,0,0,0,0,0,0,0,0,0,0,0,0,0,0,0,0,0,0,0,0,0,0,0,0,0,0
        24,      4600,-13808,  1430, 12439,    28,   -24,     8,    25,0,0,0,0,0,0,0,0,0,0,0,0,0,0,0,0,0,0,0,0,0,0,0,0,0,0,0,0,0,0,0,0,0,0,0,0,0,0,0,0,0,0
        25,      4800,-13375,   512, 12934,    26,   -25,     8,    25,0,0,0,0,0,0,0,0,0,0,0,0,0,0,0,0,0,0,0,0,0,0,0,0,0,0,0,0,0,0,0,0,0,0,0,0,0,0,0,0,0,0
        26,      5000,-12886,  -409, 13381,    26,   -25,     8,    25,0,0,0,0,0,0,0,0,0,0,0,0,0,0,0,0,0,0,0,0,0,0,0,0,0,0,0,0,0,0,0,0,0,0,0,0,0,0,0,0,0,0
        27,      5200,-12346, -1332, 13780,    27,   -26,    10,    25,0,0,0,0,0,0,0,0,0,0,0,0,0,0,0,0,0,0,0,0,0,0,0,0,0,0,0,0,0,0,0,0,0,0,0,0,0,0,0,0,0,0
        28,      5400,-11751, -2266, 14130,    28,   -28,    12,    26,0,0,0,0,0,0,0,0,0,0,0,0,0,0,0,0,0,0,0,0,0,0,0,0,0,0,0,0,0,0,0,0,0,0,0,0,0,0,0,0,0,0
        29,      5600,-11094, -3220, 14435,    28,   -29,    12,    27,0,0,0,0,0,0,0,0,0,0,0,0,0,0,0,0,0,0,0,0,0,0,0,0,0,0,0,0,0,0,0,0,0,0,0,0,0,0,0,0,0,0
        30,      5800,-10380, -4192, 14695,    27,   -30,    12,    26,0,0,0,0,0,0,0,0,0,0,0,0,0,0,0,0,0,0,0,0,0,0,0,0,0,0,0,0,0,0,0,0,0,0,0,0,0,0,0,0,0,0
        31,      6000, -9627, -5166, 14910,    28,   -31,    13,    25,0,0,0,0,0,0,0,0,0,0,0,0,0,0,0,0,0,0,0,0,0,0,0,0,0,0,0,0,0,0,0,0,0,0,0,0,0,0,0,0,0,0
        32,      6200, -8851, -6119, 15078,    30,   -32,    15,    27,0,0,0,0,0,0,0,0,0,0,0,0,0,0,0,0,0,0,0,0,0,0,0,0,0,0,0,0,0,0,0,0,0,0,0,0,0,0,0,0,0,0
        33,      6400, -8058, -7033, 15192,    31,   -34,    15,    27,0,0,0,0,0,0,0,0,0,0,0,0,0,0,0,0,0,0,0,0,0,0,0,0,0,0,0,0,0,0,0,0,0,0,0,0,0,0,0,0,0,0
        34,      6600, -7254, -7894, 15240,    33,   -37,    13,    27,0,0,0,0,0,0,0,0,0,0,0,0,0,0,0,0,0,0,0,0,0,0,0,0,0,0,0,0,0,0,0,0,0,0,0,0,0,0,0,0,0,0
        35,      6800, -6434, -8695, 15212,    37,   -37,    12,    27,0,0,0,0,0,0,0,0,0,0,0,0,0,0,0,0,0,0,0,0,0,0,0,0,0,0,0,0,0,0,0,0,0,0,0,0,0,0,0,0,0,0
        36,      7000, -5592, -9440, 15106,    38,   -37,    12,    27,0,0,0,0,0,0,0,0,0,0,0,0,0,0,0,0,0,0,0,0,0,0,0,0,0,0,0,0,0,0,0,0,0,0,0,0,0,0,0,0,0,0
        37,      7200, -4725,-10134, 14930,    37,   -37,    12,    27,0,0,0,0,0,0,0,0,0,0,0,0,0,0,0,0,0,0,0,0,0,0,0,0,0,0,0,0,0,0,0,0,0,0,0,0,0,0,0,0,0,0
        38,      7400, -3845,-10787, 14696,    39,   -39,    10,    27,0,0,0,0,0,0,0,0,0,0,0,0,0,0,0,0,0,0,0,0,0,0,0,0,0,0,0,0,0,0,0,0,0,0,0,0,0,0,0,0,0,0
        39,      7600, -2953,-11404, 14413,    40,   -40,    10,    27,0,0,0,0,0,0,0,0,0,0,0,0,0,0,0,0,0,0,0,0,0,0,0,0,0,0,0,0,0,0,0,0,0,0,0,0,0,0,0,0,0,0
        40,      7800, -2046,-11980, 14078,    39,   -41,    10,    26,0,0,0,0,0,0,0,0,0,0,0,0,0,0,0,0,0,0,0,0,0,0,0,0,0,0,0,0,0,0,0,0,0,0,0,0,0,0,0,0,0,0
        41,      8000, -1124,-12512, 13683,    40,   -42,    10,    27,0,0,0,0,0,0,0,0,0,0,0,0,0,0,0,0,0,0,0,0,0,0,0,0,0,0,0,0,0,0,0,0,0,0,0,0,0,0,0,0,0,0
        42,      8200,  -196,-12995, 13223,    41,   -42,    10,    27,0,0,0,0,0,0,0,0,0,0,0,0,0,0,0,0,0,0,0,0,0,0,0,0,0,0,0,0,0,0,0,0,0,0,0,0,0,0,0,0,0,0
        43,      8400,   736,-13425, 12704,    41,   -43,    12,    26,0,0,0,0,0,0,0,0,0,0,0,0,0,0,0,0,0,0,0,0,0,0,0,0,0,0,0,0,0,0,0,0,0,0,0,0,0,0,0,0,0,0
        44,      8600,  1676,-13807, 12131,    41,   -44,    12,    27,0,0,0,0,0,0,0,0,0,0,0,0,0,0,0,0,0,0,0,0,0,0,0,0,0,0,0,0,0,0,0,0,0,0,0,0,0,0,0,0,0,0
        45,      8800,  2631,-14143, 11502,    43,   -44,    11,    28,0,0,0,0,0,0,0,0,0,0,0,0,0,0,0,0,0,0,0,0,0,0,0,0,0,0,0,0,0,0,0,0,0,0,0,0,0,0,0,0,0,0
        46,      9000,  3605,-14433, 10816,    44,   -44,    10,    27,0,0,0,0,0,0,0,0,0,0,0,0,0,0,0,0,0,0,0,0,0,0,0,0,0,0,0,0,0,0,0,0,0,0,0,0,0,0,0,0,0,0
        47,      9200,  4588,-14676, 10082,    44,   -44,     9,    26,0,0,0,0,0,0,0,0,0,0,0,0,0,0,0,0,0,0,0,0,0,0,0,0,0,0,0,0,0,0,0,0,0,0,0,0,0,0,0,0,0,0
        48,      9400,  5559,-14875,  9320,    46,   -46,     9,    26,0,0,0,0,0,0,0,0,0,0,0,0,0,0,0,0,0,0,0,0,0,0,0,0,0,0,0,0,0,0,0,0,0,0,0,0,0,0,0,0,0,0
        49,      9600,  6495,-15027,  8542,    48,   -47,     9,    27,0,0,0,0,0,0,0,0,0,0,0,0,0,0,0,0,0,0,0,0,0,0,0,0,0,0,0,0,0,0,0,0,0,0,0,0,0,0,0,0,0,0
        50,      9800,  7385,-15121,  7754,    48,   -46,     7,    27,0,0,0,0,0,0,0,0,0,0,0,0,0,0,0,0,0,0,0,0,0,0,0,0,0,0,0,0,0,0,0,0,0,0,0,0,0,0,0,0,0,0
        51,     10000,  8217,-15148,  6954,    49,   -46,     5,    25,0,0,0,0,0,0,0,0,0,0,0,0,0,0,0,0,0,0,0,0,0,0,0,0,0,0,0,0,0,0,0,0,0,0,0,0,0,0,0,0,0,0
        52,     10200,  8992,-15099,  6134,    51,   -43,     3,    25,0,0,0,0,0,0,0,0,0,0,0,0,0,0,0,0,0,0,0,0,0,0,0,0,0,0,0,0,0,0,0,0,0,0,0,0,0,0,0,0,0,0
        53,     10400,  9720,-14974,  5290,    52,   -42,     3,    26,0,0,0,0,0,0,0,0,0,0,0,0,0,0,0,0,0,0,0,0,0,0,0,0,0,0,0,0,0,0,0,0,0,0,0,0,0,0,0,0,0,0
        54,     10600, 10404,-14789,  4424,    52,   -43,     2,    26,0,0,0,0,0,0,0,0,0,0,0,0,0,0,0,0,0,0,0,0,0,0,0,0,0,0,0,0,0,0,0,0,0,0,0,0,0,0,0,0,0,0
        55,     10800, 11044,-14551,  3546,    54,   -43,     0,    26,0,0,0,0,0,0,0,0,0,0,0,0,0,0,0,0,0,0,0,0,0,0,0,0,0,0,0,0,0,0,0,0,0,0,0,0,0,0,0,0,0,0
        56,     11000, 11645,-14256,  2658,    56,   -42,    -1,    26,0,0,0,0,0,0,0,0,0,0,0,0,0,0,0,0,0,0,0,0,0,0,0,0,0,0,0,0,0,0,0,0,0,0,0,0,0,0,0,0,0,0
        57,     11200, 12205,-13899,  1754,    55,   -42,    -1,    24,0,0,0,0,0,0,0,0,0,0,0,0,0,0,0,0,0,0,0,0,0,0,0,0,0,0,0,0,0,0,0,0,0,0,0,0,0,0,0,0,0,0
        58,     11400, 12718,-13479,   833,    55,   -43,     0,    23,0,0,0,0,0,0,0,0,0,0,0,0,0,0,0,0,0,0,0,0,0,0,0,0,0,0,0,0,0,0,0,0,0,0,0,0,0,0,0,0,0,0
        59,     11600, 13179,-12996,  -100,    56,   -43,     0,    23,0,0,0,0,0,0,0,0,0,0,0,0,0,0,0,0,0,0,0,0,0,0,0,0,0,0,0,0,0,0,0,0,0,0,0,0,0,0,0,0,0,0
        60,     11800, 13593,-12457, -1037,    58,   -43,     0,    24,0,0,0,0,0,0,0,0,0,0,0,0,0,0,0,0,0,0,0,0,0,0,0,0,0,0,0,0,0,0,0,0,0,0,0,0,0,0,0,0,0,0
        61,     12000, 13960,-11869, -1983,    59,   -43,    -2,    25,0,0,0,0,0,0,0,0,0,0,0,0,0,0,0,0,0,0,0,0,0,0,0,0,0,0,0,0,0,0,0,0,0,0,0,0,0,0,0,0,0,0
        62,     12200, 14282,-11225, -2944,    61,   -43,    -4,    25,0,0,0,0,0,0,0,0,0,0,0,0,0,0,0,0,0,0,0,0,0,0,0,0,0,0,0,0,0,0,0,0,0,0,0,0,0,0,0,0,0,0
        63,     12400, 14559,-10524, -3921,    61,   -44,    -5,    25,0,0,0,0,0,0,0,0,0,0,0,0,0,0,0,0,0,0,0,0,0,0,0,0,0,0,0,0,0,0,0,0,0,0,0,0,0,0,0,0,0,0
        64,     12600, 14792, -9780, -4899,    62,   -44,    -5,    24,0,0,0,0,0,0,0,0,0,0,0,0,0,0,0,0,0,0,0,0,0,0,0,0,0,0,0,0,0,0,0,0,0,0,0,0,0,0,0,0,0,0
        65,     12800, 14979, -9013, -5859,    64,   -43,    -7,    25,0,0,0,0,0,0,0,0,0,0,0,0,0,0,0,0,0,0,0,0,0,0,0,0,0,0,0,0,0,0,0,0,0,0,0,0,0,0,0,0,0,0
        66,     13000, 15115, -8236, -6780,    64,   -41,    -9,    24,0,0,0,0,0,0,0,0,0,0,0,0,0,0,0,0,0,0,0,0,0,0,0,0,0,0,0,0,0,0,0,0,0,0,0,0,0,0,0,0,0,0
        67,     13200, 15187, -7445, -7651,    63,   -39,   -10,    24,0,0,0,0,0,0,0,0,0,0,0,0,0,0,0,0,0,0,0,0,0,0,0,0,0,0,0,0,0,0,0,0,0,0,0,0,0,0,0,0,0,0
        68,     13400, 15186, -6635, -8466,    60,   -37,   -10,    24,0,0,0,0,0,0,0,0,0,0,0,0,0,0,0,0,0,0,0,0,0,0,0,0,0,0,0,0,0,0,0,0,0,0,0,0,0,0,0,0,0,0
        69,     13600, 15114, -5805, -9228,    59,   -36,   -10,    23,0,0,0,0,0,0,0,0,0,0,0,0,0,0,0,0,0,0,0,0,0,0,0,0,0,0,0,0,0,0,0,0,0,0,0,0,0,0,0,0,0,0
        70,     13800, 14972, -4954, -9944,    59,   -35,   -10,    24,0,0,0,0,0,0,0,0,0,0,0,0,0,0,0,0,0,0,0,0,0,0,0,0,0,0,0,0,0,0,0,0,0,0,0,0,0,0,0,0,0,0
        71,     14000, 14764, -4084,-10615,    61,   -32,   -10,    25,0,0,0,0,0,0,0,0,0,0,0,0,0,0,0,0,0,0,0,0,0,0,0,0,0,0,0,0,0,0,0,0,0,0,0,0,0,0,0,0,0,0
        72,     14200, 14500, -3199,-11243,    60,   -31,   -12,    24,0,0,0,0,0,0,0,0,0,0,0,0,0,0,0,0,0,0,0,0,0,0,0,0,0,0,0,0,0,0,0,0,0,0,0,0,0,0,0,0,0,0
        73,     14400, 14185, -2304,-11830,    58,   -32,   -14,    22,0,0,0,0,0,0,0,0,0,0,0,0,0,0,0,0,0,0,0,0,0,0,0,0,0,0,0,0,0,0,0,0,0,0,0,0,0,0,0,0,0,0
        74,     14600, 13814, -1397,-12374,    59,   -32,   -14,    23,0,0,0,0,0,0,0,0,0,0,0,0,0,0,0,0,0,0,0,0,0,0,0,0,0,0,0,0,0,0,0,0,0,0,0,0,0,0,0,0,0,0
        75,     14800, 13382,  -480,-12871,    60,   -31,   -14,    24,0,0,0,0,0,0,0,0,0,0,0,0,0,0,0,0,0,0,0,0,0,0,0,0,0,0,0,0,0,0,0,0,0,0,0,0,0,0,0,0,0,0
        76,     15000, 12895,   438,-13316,    61,   -31,   -14,    22,0,0,0,0,0,0,0,0,0,0,0,0,0,0,0,0,0,0,0,0,0,0,0,0,0,0,0,0,0,0,0,0,0,0,0,0,0,0,0,0,0,0
        77,     15200, 12355,  1360,-13713,    61,   -30,   -16,    22,0,0,0,0,0,0,0,0,0,0,0,0,0,0,0,0,0,0,0,0,0,0,0,0,0,0,0,0,0,0,0,0,0,0,0,0,0,0,0,0,0,0
        78,     15400, 11758,  2295,-14064,    61,   -28,   -17,    22,0,0,0,0,0,0,0,0,0,0,0,0,0,0,0,0,0,0,0,0,0,0,0,0,0,0,0,0,0,0,0,0,0,0,0,0,0,0,0,0,0,0
        79,     15600, 11101,  3250,-14369,    59,   -27,   -17,    22,0,0,0,0,0,0,0,0,0,0,0,0,0,0,0,0,0,0,0,0,0,0,0,0,0,0,0,0,0,0,0,0,0,0,0,0,0,0,0,0,0,0
        80,     15800, 10391,  4223,-14633,    58,   -26,   -17,    22,0,0,0,0,0,0,0,0,0,0,0,0,0,0,0,0,0,0,0,0,0,0,0,0,0,0,0,0,0,0,0,0,0,0,0,0,0,0,0,0,0,0
        81,     16000,  9643,  5197,-14853,    58,   -24,   -19,    22,0,0,0,0,0,0,0,0,0,0,0,0,0,0,0,0,0,0,0,0,0,0,0,0,0,0,0,0,0,0,0,0,0,0,0,0,0,0,0,0,0,0
        82,     16200,  8871,  6149,-15026,    58,   -22,   -19,    23,0,0,0,0,0,0,0,0,0,0,0,0,0,0,0,0,0,0,0,0,0,0,0,0,0,0,0,0,0,0,0,0,0,0,0,0,0,0,0,0,0,0
        83,     16400,  8082,  7063,-15143,    56,   -22,   -19,    22,0,0,0,0,0,0,0,0,0,0,0,0,0,0,0,0,0,0,0,0,0,0,0,0,0,0,0,0,0,0,0,0,0,0,0,0,0,0,0,0,0,0
        84,     16600,  7281,  7924,-15194,    54,   -22,   -18,    21,0,0,0,0,0,0,0,0,0,0,0,0,0,0,0,0,0,0,0,0,0,0,0,0,0,0,0,0,0,0,0,0,0,0,0,0,0,0,0,0,0,0
        85,     16800,  6464,  8726,-15169,    51,   -20,   -16,    22,0,0,0,0,0,0,0,0,0,0,0,0,0,0,0,0,0,0,0,0,0,0,0,0,0,0,0,0,0,0,0,0,0,0,0,0,0,0,0,0,0,0
        86,     17000,  5623,  9471,-15063,    49,   -18,   -14,    23,0,0,0,0,0,0,0,0,0,0,0,0,0,0,0,0,0,0,0,0,0,0,0,0,0,0,0,0,0,0,0,0,0,0,0,0,0,0,0,0,0,0
        87,     17200,  4757, 10167,-14886,    49,   -18,   -15,    22,0,0,0,0,0,0,0,0,0,0,0,0,0,0,0,0,0,0,0,0,0,0,0,0,0,0,0,0,0,0,0,0,0,0,0,0,0,0,0,0,0,0
        88,     17400,  3875, 10822,-14653,    48,   -16,   -17,    22,0,0,0,0,0,0,0,0,0,0,0,0,0,0,0,0,0,0,0,0,0,0,0,0,0,0,0,0,0,0,0,0,0,0,0,0,0,0,0,0,0,0
        89,     17600,  2980, 11437,-14369,    48,   -15,   -17,    22,0,0,0,0,0,0,0,0,0,0,0,0,0,0,0,0,0,0,0,0,0,0,0,0,0,0,0,0,0,0,0,0,0,0,0,0,0,0,0,0,0,0
        90,     17800,  2070, 12015,-14032,    47,   -16,   -17,    21,0,0,0,0,0,0,0,0,0,0,0,0,0,0,0,0,0,0,0,0,0,0,0,0,0,0,0,0,0,0,0,0,0,0,0,0,0,0,0,0,0,0
        91,     18000,  1146, 12551,-13639,    47,   -15,   -17,    21,0,0,0,0,0,0,0,0,0,0,0,0,0,0,0,0,0,0,0,0,0,0,0,0,0,0,0,0,0,0,0,0,0,0,0,0,0,0,0,0,0,0
        92,     18200,   218, 13037,-13184,    48,   -12,   -17,    21,0,0,0,0,0,0,0,0,0,0,0,0,0,0,0,0,0,0,0,0,0,0,0,0,0,0,0,0,0,0,0,0,0,0,0,0,0,0,0,0,0,0
        93,     18400,  -714, 13468,-12668,    48,   -12,   -18,    22,0,0,0,0,0,0,0,0,0,0,0,0,0,0,0,0,0,0,0,0,0,0,0,0,0,0,0,0,0,0,0,0,0,0,0,0,0,0,0,0,0,0
        94,     18600, -1655, 13851,-12094,    46,   -13,   -19,    22,0,0,0,0,0,0,0,0,0,0,0,0,0,0,0,0,0,0,0,0,0,0,0,0,0,0,0,0,0,0,0,0,0,0,0,0,0,0,0,0,0,0
        95,     18800, -2611, 14192,-11468,    45,   -11,   -16,    21,0,0,0,0,0,0,0,0,0,0,0,0,0,0,0,0,0,0,0,0,0,0,0,0,0,0,0,0,0,0,0,0,0,0,0,0,0,0,0,0,0,0
        96,     19000, -3583, 14488,-10787,    43,   -11,   -15,    21,0,0,0,0,0,0,0,0,0,0,0,0,0,0,0,0,0,0,0,0,0,0,0,0,0,0,0,0,0,0,0,0,0,0,0,0,0,0,0,0,0,0
        97,     19200, -4563, 14733,-10057,    41,   -12,   -17,    22,0,0,0,0,0,0,0,0,0,0,0,0,0,0,0,0,0,0,0,0,0,0,0,0,0,0,0,0,0,0,0,0,0,0,0,0,0,0,0,0,0,0
        98,     19400, -5535, 14931, -9293,    40,    -9,   -18,    22,0,0,0,0,0,0,0,0,0,0,0,0,0,0,0,0,0,0,0,0,0,0,0,0,0,0,0,0,0,0,0,0,0,0,0,0,0,0,0,0,0,0
        99,     19600, -6474, 15082, -8514,    39,    -8,   -14,    21,0,0,0,0,0,0,0,0,0,0,0,0,0,0,0,0,0,0,0,0,0,0,0,0,0,0,0,0,0,0,0,0,0,0,0,0,0,0,0,0,0,0
       100,     19800, -7364, 15179, -7725,    37,   -10,   -12,    21,0,0,0,0,0,0,0,0,0,0,0,0,0,0,0,0,0,0,0,0,0,0,0,0,0,0,0,0,0,0,0,0,0,0,0,0,0,0,0,0,0,0
       101,     20000, -8198, 15208, -6924,    35,   -13,   -10,    22,0,0,0,0,0,0,0,0,0,0,0,0,0,0,0,0,0,0,0,0,0,0,0,0,0,0,0,0,0,0,0,0,0,0,0,0,0,0,0,0,0,0
       102,     20200, -8977, 15160, -6104,    35,   -14,    -8,    22,0,0,0,0,0,0,0,0,0,0,0,0,0,0,0,0,0,0,0,0,0,0,0,0,0,0,0,0,0,0,0,0,0,0,0,0,0,0,0,0,0,0
       103,     20400, -9707, 15041, -5260,    35,   -13,    -8,    21,0,0,0,0,0,0,0,0,0,0,0,0,0,0,0,0,0,0,0,0,0,0,0,0,0,0,0,0,0,0,0,0,0,0,0,0,0,0,0,0,0,0
       104,     20600,-10396, 14861, -4394,    34,   -12,    -8,    21,0,0,0,0,0,0,0,0,0,0,0,0,0,0,0,0,0,0,0,0,0,0,0,0,0,0,0,0,0,0,0,0,0,0,0,0,0,0,0,0,0,0
       105,     20800,-11043, 14625, -3517,    32,   -12,    -6,    21,0,0,0,0,0,0,0,0,0,0,0,0,0,0,0,0,0,0,0,0,0,0,0,0,0,0,0,0,0,0,0,0,0,0,0,0,0,0,0,0,0,0
       106,     21000,-11646, 14333, -2631,    32,   -12,    -4,    23,0,0,0,0,0,0,0,0,0,0,0,0,0,0,0,0,0,0,0,0,0,0,0,0,0,0,0,0,0,0,0,0,0,0,0,0,0,0,0,0,0,0
       107,     21200,-12204, 13981, -1731,    32,   -12,    -4,    24,0,0,0,0,0,0,0,0,0,0,0,0,0,0,0,0,0,0,0,0,0,0,0,0,0,0,0,0,0,0,0,0,0,0,0,0,0,0,0,0,0,0
       108,     21400,-12716, 13564,  -815,    30,   -13,    -4,    24,0,0,0,0,0,0,0,0,0,0,0,0,0,0,0,0,0,0,0,0,0,0,0,0,0,0,0,0,0,0,0,0,0,0,0,0,0,0,0,0,0,0
       109,     21600,-13178, 13083,   112,    29,   -13,    -4,    23,0,0,0,0,0,0,0,0,0,0,0,0,0,0,0,0,0,0,0,0,0,0,0,0,0,0,0,0,0,0,0,0,0,0,0,0,0,0,0,0,0,0
       110,     21800,-13590, 12544,  1048,    30,   -12,    -4,    22,0,0,0,0,0,0,0,0,0,0,0,0,0,0,0,0,0,0,0,0,0,0,0,0,0,0,0,0,0,0,0,0,0,0,0,0,0,0,0,0,0,0
       111,     22000,-13956, 11954,  1994,    29,   -11,    -3,    22,0,0,0,0,0,0,0,0,0,0,0,0,0,0,0,0,0,0,0,0,0,0,0,0,0,0,0,0,0,0,0,0,0,0,0,0,0,0,0,0,0,0
       112,     22200,-14277, 11311,  2954,    27,   -11,    -1,    24,0,0,0,0,0,0,0,0,0,0,0,0,0,0,0,0,0,0,0,0,0,0,0,0,0,0,0,0,0,0,0,0,0,0,0,0,0,0,0,0,0,0
       113,     22400,-14555, 10615,  3930,    27,   -11,     0,    24,0,0,0,0,0,0,0,0,0,0,0,0,0,0,0,0,0,0,0,0,0,0,0,0,0,0,0,0,0,0,0,0,0,0,0,0,0,0,0,0,0,0
       114,     22600,-14792,  9874,  4910,    25,   -13,     0,    24,0,0,0,0,0,0,0,0,0,0,0,0,0,0,0,0,0,0,0,0,0,0,0,0,0,0,0,0,0,0,0,0,0,0,0,0,0,0,0,0,0,0
       115,     22800,-14985,  9107,  5872,    24,   -13,     1,    24,0,0,0,0,0,0,0,0,0,0,0,0,0,0,0,0,0,0,0,0,0,0,0,0,0,0,0,0,0,0,0,0,0,0,0,0,0,0,0,0,0,0
       116,     23000,-15124,  8330,  6796,    24,   -12,     1,    25,0,0,0,0,0,0,0,0,0,0,0,0,0,0,0,0,0,0,0,0,0,0,0,0,0,0,0,0,0,0,0,0,0,0,0,0,0,0,0,0,0,0
